Vds,Vgs,Ids,W,L,T
0.1,1.0,2.5559e-08,10,5,0
1.0,0.6,2.0249e-08,10,5,0
5.0,0.6,2.2716e-08,10,5,0
10.0,0.6,2.9482e-08,10,5,0
20.0,0.4,2.4382e-08,10,5,0
30.0,-3.7581e-14,1.1622e-08,10,5,0
0.1,1.0,2.4687e-08,10,5,25
1.0,0.6,2.1353e-08,10,5,25
5.0,0.6,2.4018e-08,10,5,25
10.0,0.6,3.0986e-08,10,5,25
20.0,0.4,2.5735e-08,10,5,25
30.0,-3.7581e-14,1.2602e-08,10,5,25
0.1,1.0,2.3164e-08,10,5,80
1.0,0.6,2.381e-08,10,5,80
5.0,0.6,2.6998e-08,10,5,80
10.0,0.6,3.4371e-08,10,5,80
20.0,0.4,2.882e-08,10,5,80
30.0,-3.7581e-14,1.4934e-08,10,5,80
0.1,1.0,1.1959e-08,10,8,0
1.0,0.8,2.1772e-08,10,8,0
5.0,0.8,2.3301e-08,10,8,0
10.0,0.6,6.5923e-09,10,8,0
20.0,0.6,1.4798e-08,10,8,0
30.0,0.4,1.2227e-08,10,8,0
0.1,1.0,1.1588e-08,10,8,25
1.0,0.8,2.2665e-08,10,8,25
5.0,0.8,2.4376e-08,10,8,25
10.0,0.6,7.1783e-09,10,8,25
20.0,0.6,1.5626e-08,10,8,25
30.0,0.4,1.2979e-08,10,8,25
0.1,1.0,1.0929e-08,10,8,80
1.0,0.8,2.4564e-08,10,8,80
5.0,0.6,6.9309e-09,10,8,80
10.0,0.6,8.5779e-09,10,8,80
20.0,0.6,1.7516e-08,10,8,80
30.0,0.4,1.4719e-08,10,8,80
0.1,1.0,8.6076e-09,10,10,0
1.0,0.8,1.4243e-08,10,10,0
5.0,0.8,1.5151e-08,10,10,0
10.0,0.8,1.6895e-08,10,10,0
20.0,0.6,7.3072e-09,10,10,0
30.0,0.6,1.7755e-08,10,10,0
0.1,1.0,8.3487e-09,10,10,25
1.0,0.8,1.4884e-08,10,10,25
5.0,0.8,1.5909e-08,10,10,25
10.0,0.8,1.7705e-08,10,10,25
20.0,0.6,7.8352e-09,10,10,25
30.0,0.6,1.859e-08,10,10,25
0.1,1.0,7.8861e-09,10,10,80
1.0,0.8,1.627e-08,10,10,80
5.0,0.8,1.7611e-08,10,10,80
10.0,0.8,1.9515e-08,10,10,80
20.0,0.6,9.0794e-09,10,10,80
30.0,0.4,5.3852e-09,10,10,80
0.1,1.0,6.6635e-09,10,12,0
1.0,0.8,1.0259e-08,10,12,0
5.0,0.8,1.0863e-08,10,12,0
10.0,0.8,1.1986e-08,10,12,0
20.0,0.6,4.1277e-09,10,12,0
30.0,0.6,1.0079e-08,10,12,0
0.1,1.0,6.4671e-09,10,12,25
1.0,0.8,1.0756e-08,10,12,25
5.0,0.8,1.1442e-08,10,12,25
10.0,0.8,1.2599e-08,10,12,25
20.0,0.6,4.508e-09,10,12,25
30.0,0.6,1.0635e-08,10,12,25
0.1,1.2,1.0359e-08,10,12,80
1.0,0.8,1.1842e-08,10,12,80
5.0,0.8,1.2755e-08,10,12,80
10.0,0.8,1.3981e-08,10,12,80
20.0,0.6,5.4187e-09,10,12,80
30.0,0.6,1.1904e-08,10,12,80
0.1,1.0,5.1117e-08,20,5,0
1.0,0.6,4.0499e-08,20,5,0
5.0,0.6,4.5432e-08,20,5,0
10.0,0.6,5.8964e-08,20,5,0
20.0,0.4,4.8764e-08,20,5,0
30.0,-3.7581e-14,2.3244e-08,20,5,0
0.1,1.0,4.9374e-08,20,5,25
1.0,0.6,4.2705e-08,20,5,25
5.0,0.6,4.8035e-08,20,5,25
10.0,0.6,6.1973e-08,20,5,25
20.0,0.4,5.1471e-08,20,5,25
30.0,-3.7581e-14,2.5204e-08,20,5,25
0.1,1.0,4.6329e-08,20,5,80
1.0,0.6,4.762e-08,20,5,80
5.0,0.6,5.3997e-08,20,5,80
10.0,0.6,6.8743e-08,20,5,80
20.0,0.4,5.764e-08,20,5,80
30.0,-3.7581e-14,2.9867e-08,20,5,80
0.1,1.0,2.3919e-08,20,8,0
1.0,0.8,4.3545e-08,20,8,0
5.0,0.8,4.6602e-08,20,8,0
10.0,0.6,1.3185e-08,20,8,0
20.0,0.6,2.9596e-08,20,8,0
30.0,0.4,2.4454e-08,20,8,0
0.1,1.0,2.3177e-08,20,8,25
1.0,0.8,4.5331e-08,20,8,25
5.0,0.8,4.8752e-08,20,8,25
10.0,0.6,1.4357e-08,20,8,25
20.0,0.6,3.1252e-08,20,8,25
30.0,0.4,2.5958e-08,20,8,25
0.1,1.0,2.1858e-08,20,8,80
1.0,0.8,4.9128e-08,20,8,80
5.0,0.6,1.3862e-08,20,8,80
10.0,0.6,1.7156e-08,20,8,80
20.0,0.6,3.5031e-08,20,8,80
30.0,0.4,2.9437e-08,20,8,80
0.1,1.0,1.7215e-08,20,10,0
1.0,0.8,2.8485e-08,20,10,0
5.0,0.8,3.0302e-08,20,10,0
10.0,0.8,3.379e-08,20,10,0
20.0,0.6,1.4614e-08,20,10,0
30.0,0.6,3.5509e-08,20,10,0
0.1,1.0,1.6697e-08,20,10,25
1.0,0.8,2.9769e-08,20,10,25
5.0,0.8,3.1819e-08,20,10,25
10.0,0.8,3.5411e-08,20,10,25
20.0,0.6,1.567e-08,20,10,25
30.0,0.6,3.718e-08,20,10,25
0.1,1.0,1.5772e-08,20,10,80
1.0,0.8,3.2539e-08,20,10,80
5.0,0.8,3.5223e-08,20,10,80
10.0,0.8,3.903e-08,20,10,80
20.0,0.6,1.8159e-08,20,10,80
30.0,0.4,1.077e-08,20,10,80
0.1,1.0,1.3327e-08,20,12,0
1.0,0.8,2.0519e-08,20,12,0
5.0,0.8,2.1727e-08,20,12,0
10.0,0.8,2.3972e-08,20,12,0
20.0,0.6,8.2555e-09,20,12,0
30.0,0.6,2.0158e-08,20,12,0
0.1,1.0,1.2934e-08,20,12,25
1.0,0.8,2.1512e-08,20,12,25
5.0,0.8,2.2885e-08,20,12,25
10.0,0.8,2.5199e-08,20,12,25
20.0,0.6,9.0159e-09,20,12,25
30.0,0.6,2.1271e-08,20,12,25
0.1,1.2,2.0718e-08,20,12,80
1.0,0.8,2.3683e-08,20,12,80
5.0,0.8,2.5509e-08,20,12,80
10.0,0.8,2.7962e-08,20,12,80
20.0,0.6,1.0837e-08,20,12,80
30.0,0.6,2.3808e-08,20,12,80
0.1,1.0,8.9455e-08,35,5,0
1.0,0.6,7.0873e-08,35,5,0
5.0,0.6,7.9505e-08,35,5,0
10.0,0.6,1.0319e-07,35,5,0
20.0,0.4,8.5337e-08,35,5,0
30.0,-3.7581e-14,4.0677e-08,35,5,0
0.1,1.0,8.6404e-08,35,5,25
1.0,0.6,7.4734e-08,35,5,25
5.0,0.6,8.4062e-08,35,5,25
10.0,0.6,1.0845e-07,35,5,25
20.0,0.4,9.0074e-08,35,5,25
30.0,-3.7581e-14,4.4107e-08,35,5,25
0.1,1.0,8.1075e-08,35,5,80
1.0,0.6,8.3335e-08,35,5,80
5.0,0.6,9.4494e-08,35,5,80
10.0,0.6,1.203e-07,35,5,80
20.0,0.4,1.0087e-07,35,5,80
30.0,-3.7581e-14,5.2268e-08,35,5,80
0.1,1.0,4.1858e-08,35,8,0
1.0,0.8,7.6203e-08,35,8,0
5.0,0.8,8.1553e-08,35,8,0
10.0,0.6,2.3073e-08,35,8,0
20.0,0.6,5.1793e-08,35,8,0
30.0,0.4,4.2795e-08,35,8,0
0.1,1.0,4.056e-08,35,8,25
1.0,0.8,7.9329e-08,35,8,25
5.0,0.8,8.5315e-08,35,8,25
10.0,0.6,2.5124e-08,35,8,25
20.0,0.6,5.4691e-08,35,8,25
30.0,0.4,4.5426e-08,35,8,25
0.1,1.0,3.8251e-08,35,8,80
1.0,0.8,8.5975e-08,35,8,80
5.0,0.6,2.4258e-08,35,8,80
10.0,0.6,3.0023e-08,35,8,80
20.0,0.6,6.1305e-08,35,8,80
30.0,0.4,5.1515e-08,35,8,80
0.1,1.0,3.0127e-08,35,10,0
1.0,0.8,4.9849e-08,35,10,0
5.0,0.8,5.3028e-08,35,10,0
10.0,0.8,5.9132e-08,35,10,0
20.0,0.6,2.5575e-08,35,10,0
30.0,0.6,6.2141e-08,35,10,0
0.1,1.0,2.9221e-08,35,10,25
1.0,0.8,5.2096e-08,35,10,25
5.0,0.8,5.5682e-08,35,10,25
10.0,0.8,6.1969e-08,35,10,25
20.0,0.6,2.7423e-08,35,10,25
30.0,0.6,6.5065e-08,35,10,25
0.1,1.0,2.7601e-08,35,10,80
1.0,0.8,5.6944e-08,35,10,80
5.0,0.8,6.1639e-08,35,10,80
10.0,0.8,6.8303e-08,35,10,80
20.0,0.6,3.1778e-08,35,10,80
30.0,0.4,1.8848e-08,35,10,80
0.1,1.0,2.3322e-08,35,12,0
1.0,0.8,3.5907e-08,35,12,0
5.0,0.8,3.8022e-08,35,12,0
10.0,0.8,4.1951e-08,35,12,0
20.0,0.6,1.4447e-08,35,12,0
30.0,0.6,3.5276e-08,35,12,0
0.1,1.0,2.2635e-08,35,12,25
1.0,0.8,3.7646e-08,35,12,25
5.0,0.8,4.0049e-08,35,12,25
10.0,0.8,4.4098e-08,35,12,25
20.0,0.6,1.5778e-08,35,12,25
30.0,0.6,3.7224e-08,35,12,25
0.1,1.2,3.6257e-08,35,12,80
1.0,0.8,4.1446e-08,35,12,80
5.0,0.8,4.4642e-08,35,12,80
10.0,0.8,4.8934e-08,35,12,80
20.0,0.6,1.8965e-08,35,12,80
30.0,0.6,4.1664e-08,35,12,80
0.1,1.0,1.2779e-07,50,5,0
1.0,0.6,1.0125e-07,50,5,0
5.0,0.6,1.1358e-07,50,5,0
10.0,0.6,1.4741e-07,50,5,0
20.0,0.4,1.2191e-07,50,5,0
30.0,-3.7581e-14,5.811e-08,50,5,0
0.1,1.0,1.2343e-07,50,5,25
1.0,0.6,1.0676e-07,50,5,25
5.0,0.6,1.2009e-07,50,5,25
10.0,0.6,1.5493e-07,50,5,25
20.0,0.4,1.2868e-07,50,5,25
30.0,-3.7581e-14,6.3009e-08,50,5,25
0.1,1.0,1.1582e-07,50,5,80
1.0,0.6,1.1905e-07,50,5,80
5.0,0.6,1.3499e-07,50,5,80
10.0,0.6,1.7186e-07,50,5,80
20.0,0.4,1.441e-07,50,5,80
30.0,-3.7581e-14,7.4668e-08,50,5,80
0.1,1.0,5.9797e-08,50,8,0
1.0,0.8,1.0886e-07,50,8,0
5.0,0.8,1.165e-07,50,8,0
10.0,0.6,3.2962e-08,50,8,0
20.0,0.6,7.399e-08,50,8,0
30.0,0.4,6.1135e-08,50,8,0
0.1,1.0,5.7942e-08,50,8,25
1.0,0.8,1.1333e-07,50,8,25
5.0,0.8,1.2188e-07,50,8,25
10.0,0.6,3.5892e-08,50,8,25
20.0,0.6,7.8129e-08,50,8,25
30.0,0.4,6.4895e-08,50,8,25
0.1,1.0,5.4645e-08,50,8,80
1.0,0.8,1.2282e-07,50,8,80
5.0,0.6,3.4655e-08,50,8,80
10.0,0.6,4.289e-08,50,8,80
20.0,0.6,8.7578e-08,50,8,80
30.0,0.4,7.3593e-08,50,8,80
0.1,1.0,4.3038e-08,50,10,0
1.0,0.8,7.1213e-08,50,10,0
5.0,0.8,7.5754e-08,50,10,0
10.0,0.8,8.4474e-08,50,10,0
20.0,0.6,3.6536e-08,50,10,0
30.0,0.6,8.8773e-08,50,10,0
0.1,1.0,4.1744e-08,50,10,25
1.0,0.8,7.4422e-08,50,10,25
5.0,0.8,7.9546e-08,50,10,25
10.0,0.8,8.8527e-08,50,10,25
20.0,0.6,3.9176e-08,50,10,25
30.0,0.6,9.295e-08,50,10,25
0.1,1.0,3.943e-08,50,10,80
1.0,0.8,8.1348e-08,50,10,80
5.0,0.8,8.8056e-08,50,10,80
10.0,0.8,9.7576e-08,50,10,80
20.0,0.6,4.5397e-08,50,10,80
30.0,0.4,2.6926e-08,50,10,80
0.1,1.0,3.3318e-08,50,12,0
1.0,0.8,5.1296e-08,50,12,0
5.0,0.8,5.4317e-08,50,12,0
10.0,0.8,5.993e-08,50,12,0
20.0,0.6,2.0639e-08,50,12,0
30.0,0.6,5.0394e-08,50,12,0
0.1,1.0,3.2336e-08,50,12,25
1.0,0.8,5.3779e-08,50,12,25
5.0,0.8,5.7212e-08,50,12,25
10.0,0.8,6.2997e-08,50,12,25
20.0,0.6,2.254e-08,50,12,25
30.0,0.6,5.3177e-08,50,12,25
0.1,1.2,5.1795e-08,50,12,80
1.0,0.8,5.9208e-08,50,12,80
5.0,0.8,6.3774e-08,50,12,80
10.0,0.8,6.9906e-08,50,12,80
20.0,0.6,2.7093e-08,50,12,80
30.0,0.6,5.9521e-08,50,12,80
0.1,1.0,2.5559e-07,100,5,0
1.0,0.6,2.0249e-07,100,5,0
5.0,0.6,2.2716e-07,100,5,0
10.0,0.6,2.9482e-07,100,5,0
20.0,0.4,2.4382e-07,100,5,0
30.0,-3.7581e-14,1.1622e-07,100,5,0
0.1,1.0,2.4687e-07,100,5,25
1.0,0.6,2.1353e-07,100,5,25
5.0,0.6,2.4018e-07,100,5,25
10.0,0.6,3.0986e-07,100,5,25
20.0,0.4,2.5735e-07,100,5,25
30.0,-3.7581e-14,1.2602e-07,100,5,25
0.1,1.0,2.3164e-07,100,5,80
1.0,0.6,2.381e-07,100,5,80
5.0,0.6,2.6998e-07,100,5,80
10.0,0.6,3.4371e-07,100,5,80
20.0,0.4,2.882e-07,100,5,80
30.0,-3.7581e-14,1.4934e-07,100,5,80
0.1,1.0,1.1959e-07,100,8,0
1.0,0.8,2.1772e-07,100,8,0
5.0,0.8,2.3301e-07,100,8,0
10.0,0.6,6.5923e-08,100,8,0
20.0,0.6,1.4798e-07,100,8,0
30.0,0.4,1.2227e-07,100,8,0
0.1,1.0,1.1588e-07,100,8,25
1.0,0.8,2.2665e-07,100,8,25
5.0,0.8,2.4376e-07,100,8,25
10.0,0.6,7.1783e-08,100,8,25
20.0,0.6,1.5626e-07,100,8,25
30.0,0.4,1.2979e-07,100,8,25
0.1,1.0,1.0929e-07,100,8,80
1.0,0.8,2.4564e-07,100,8,80
5.0,0.6,6.9309e-08,100,8,80
10.0,0.6,8.5779e-08,100,8,80
20.0,0.6,1.7516e-07,100,8,80
30.0,0.4,1.4719e-07,100,8,80
0.1,1.0,8.6076e-08,100,10,0
1.0,0.8,1.4243e-07,100,10,0
5.0,0.8,1.5151e-07,100,10,0
10.0,0.8,1.6895e-07,100,10,0
20.0,0.6,7.3072e-08,100,10,0
30.0,0.6,1.7755e-07,100,10,0
0.1,1.0,8.3487e-08,100,10,25
1.0,0.8,1.4884e-07,100,10,25
5.0,0.8,1.5909e-07,100,10,25
10.0,0.8,1.7705e-07,100,10,25
20.0,0.6,7.8352e-08,100,10,25
30.0,0.6,1.859e-07,100,10,25
0.1,1.0,7.8861e-08,100,10,80
1.0,0.8,1.627e-07,100,10,80
5.0,0.8,1.7611e-07,100,10,80
10.0,0.8,1.9515e-07,100,10,80
20.0,0.6,9.0794e-08,100,10,80
30.0,0.4,5.3852e-08,100,10,80
0.1,1.0,6.6635e-08,100,12,0
1.0,0.8,1.0259e-07,100,12,0
5.0,0.8,1.0863e-07,100,12,0
10.0,0.8,1.1986e-07,100,12,0
20.0,0.6,4.1277e-08,100,12,0
30.0,0.6,1.0079e-07,100,12,0
0.1,1.0,6.4671e-08,100,12,25
1.0,0.8,1.0756e-07,100,12,25
5.0,0.8,1.1442e-07,100,12,25
10.0,0.8,1.2599e-07,100,12,25
20.0,0.6,4.508e-08,100,12,25
30.0,0.6,1.0635e-07,100,12,25
0.1,1.2,1.0359e-07,100,12,80
1.0,0.8,1.1842e-07,100,12,80
5.0,0.8,1.2755e-07,100,12,80
10.0,0.8,1.3981e-07,100,12,80
20.0,0.6,5.4187e-08,100,12,80
30.0,0.6,1.1904e-07,100,12,80
0.1,1.0,2.5559e-06,1000,5,0
1.0,0.6,2.0249e-06,1000,5,0
5.0,0.6,2.2716e-06,1000,5,0
10.0,0.6,2.9482e-06,1000,5,0
20.0,0.4,2.4382e-06,1000,5,0
30.0,-3.7581e-14,1.1622e-06,1000,5,0
0.1,1.0,2.4687e-06,1000,5,25
1.0,0.6,2.1353e-06,1000,5,25
5.0,0.6,2.4018e-06,1000,5,25
10.0,0.6,3.0986e-06,1000,5,25
20.0,0.4,2.5735e-06,1000,5,25
30.0,-3.7581e-14,1.2602e-06,1000,5,25
0.1,1.0,2.3164e-06,1000,5,80
1.0,0.6,2.381e-06,1000,5,80
5.0,0.6,2.6998e-06,1000,5,80
10.0,0.6,3.4371e-06,1000,5,80
20.0,0.4,2.882e-06,1000,5,80
30.0,-3.7581e-14,1.4934e-06,1000,5,80
0.1,1.0,1.1959e-06,1000,8,0
1.0,0.8,2.1772e-06,1000,8,0
5.0,0.8,2.3301e-06,1000,8,0
10.0,0.6,6.5923e-07,1000,8,0
20.0,0.6,1.4798e-06,1000,8,0
30.0,0.4,1.2227e-06,1000,8,0
0.1,1.0,1.1588e-06,1000,8,25
1.0,0.8,2.2665e-06,1000,8,25
5.0,0.8,2.4376e-06,1000,8,25
10.0,0.6,7.1783e-07,1000,8,25
20.0,0.6,1.5626e-06,1000,8,25
30.0,0.4,1.2979e-06,1000,8,25
0.1,1.0,1.0929e-06,1000,8,80
1.0,0.8,2.4564e-06,1000,8,80
5.0,0.6,6.9309e-07,1000,8,80
10.0,0.6,8.5779e-07,1000,8,80
20.0,0.6,1.7516e-06,1000,8,80
30.0,0.4,1.4719e-06,1000,8,80
0.1,1.0,8.6076e-07,1000,10,0
1.0,0.8,1.4243e-06,1000,10,0
5.0,0.8,1.5151e-06,1000,10,0
10.0,0.8,1.6895e-06,1000,10,0
20.0,0.6,7.3072e-07,1000,10,0
30.0,0.6,1.7755e-06,1000,10,0
0.1,1.0,8.3487e-07,1000,10,25
1.0,0.8,1.4884e-06,1000,10,25
5.0,0.8,1.5909e-06,1000,10,25
10.0,0.8,1.7705e-06,1000,10,25
20.0,0.6,7.8352e-07,1000,10,25
30.0,0.6,1.859e-06,1000,10,25
0.1,1.0,7.8861e-07,1000,10,80
1.0,0.8,1.627e-06,1000,10,80
5.0,0.8,1.7611e-06,1000,10,80
10.0,0.8,1.9515e-06,1000,10,80
20.0,0.6,9.0794e-07,1000,10,80
30.0,0.4,5.3852e-07,1000,10,80
0.1,1.0,6.6635e-07,1000,12,0
1.0,0.8,1.0259e-06,1000,12,0
5.0,0.8,1.0863e-06,1000,12,0
10.0,0.8,1.1986e-06,1000,12,0
20.0,0.6,4.1277e-07,1000,12,0
30.0,0.6,1.0079e-06,1000,12,0
0.1,1.0,6.4671e-07,1000,12,25
1.0,0.8,1.0756e-06,1000,12,25
5.0,0.8,1.1442e-06,1000,12,25
10.0,0.8,1.2599e-06,1000,12,25
20.0,0.6,4.508e-07,1000,12,25
30.0,0.6,1.0635e-06,1000,12,25
0.1,1.2,1.0359e-06,1000,12,80
1.0,0.8,1.1842e-06,1000,12,80
5.0,0.8,1.2755e-06,1000,12,80
10.0,0.8,1.3981e-06,1000,12,80
20.0,0.6,5.4187e-07,1000,12,80
30.0,0.6,1.1904e-06,1000,12,80
